#Digilent WaveForms Impedance Analyzer
#Device Name: DY_Discovery1
#Serial Number: SN:210244704387
#Date Time: 
#Digilent WaveForms Impedance Analyzer Trace#Trace: Trace
#Start: 1000 Hz
#Stop: 3000 Hz
#Steps: 2001
#Resistor: 1000 ¦¸
#Average: 1
#ProbeResistance: 1.041e+06 ¦¸
#ProbeCapacitance: 4.5e-11 F
#Compensation:none
#Wavegen: Wavegen1
#Amplitude: 1 V
#Offset: 0 V
#Amplification: 1 X
#Settle: 0.01 s
#MinPeriods: 16
#Scale: Logarithmic
#ScopeC
#SChannel: 1 
#Range: 5.48591 V
#Offset: -0.000257542 V
#Attenuation: 1 X
#ScopeC
#SChannel: 2 
#Range: 5.5047 V
#Offset: -0.000259064 V
#Attenuation: 1 X

Frequency (Hz)	Trace < (deg)	Trace th (deg)	Trace |Z| (Ohm)	Trace Rs (Ohm)	Trace Xs (Ohm)
1000	-89.44643484050015	-89.47119705201025	25491.29543156258	235.2648121078933	-25490.20975291077
1000.549457040582	-89.4072629456075	-89.43203876288737	25494.94863282285	252.7220249899909	-25493.69603192838
1001.099215984204	-89.445600031821	-89.47038946234642	25480.68518814105	235.5260252724537	-25479.5966441498
1001.649276996748	-89.39691015564649	-89.42171320689734	25416.28529090942	256.522429691042	-25414.99073838045
1002.199640244188	-89.39020224492741	-89.4150189243877	25436.17479969257	259.6949113803401	-25434.84906567205
1002.750305892589	-89.39700470192135	-89.42183501707918	25430.17856801184	256.6085907549773	-25428.88385344743
1003.301274108108	-89.42342892118288	-89.44827287953046	25373.07242664562	244.3250787589018	-25371.89605890135
1003.852545056992	-89.4199564799295	-89.44481408896323	25365.13562324411	245.7798057464225	-25363.94483262914
1004.40411890558	-89.38525547847593	-89.41012674569623	25337.57134919481	260.8515281858436	-25336.22857403566
1004.955995820303	-89.4338340879447	-89.45871902085617	25330.91973574423	239.3010655420334	-25329.78937256974
1005.508175967681	-89.42062575698439	-89.44552436309573	25297.88504478612	244.8145761822548	-25296.70044813161
1006.06065951433	-89.40666059264755	-89.4315728794716	25265.55106000464	250.6535205721677	-25264.30769244086
1006.613446626953	-89.34476078491107	-89.36968675996479	25246.04089406485	277.7271380192391	-25244.51323479228
1007.166537472347	-89.43034297183316	-89.45528264263764	25236.09849942341	239.9187849774263	-25234.95802352791
1007.7199322174	-89.41528643928339	-89.44023981336385	25219.51548691566	246.3821288358752	-25218.31194274052
1008.273631029092	-89.38960864902188	-89.41457573390765	25203.01221266008	257.5093371567419	-25201.69663996395
1008.827634074494	-89.42091034095951	-89.44589114418413	25211.62407822755	243.8184195281341	-25210.44508215121
1009.38194152077	-89.34314819199032	-89.36814272109142	25149.23736352895	277.3399145309073	-25147.70809713936
1009.936553535176	-89.34518449461746	-89.37019275713679	25160.099350671	276.5595272460608	-25158.57933515971
1010.491470285057	-89.42129226337794	-89.44631426686144	25125.36119132663	242.7986428834072	-25124.18802297174
1011.046691937854	-89.42740289699087	-89.4524386489886	25103.71649248028	239.9062513527952	-25102.57012190959
1011.602218661096	-89.44064229938256	-89.46569180744876	25107.89875703859	234.1387389579121	-25106.807026076
1012.158050622408	-89.45216285461392	-89.47722612630693	25072.54935614781	228.7619088130345	-25071.50572274318
1012.714187989505	-89.33569787407781	-89.36077491696015	25050.24571702041	279.4693318454103	-25048.68673954101
1013.270630930193	-89.4081576091007	-89.43324843073906	25008.3600594339	247.3706840936665	-25007.13659351946
1013.827379612373	-89.44136068078525	-89.46646528875043	25010.75364361813	232.8952060381138	-25009.66928299456
1014.384434204036	-89.38102651419933	-89.40614491606634	24959.50476796893	258.6938084891235	-24958.16411068157
1014.941794873267	-89.44049602613589	-89.46562822948387	24934.4413966044	232.5488638550391	-24933.3569498096
1015.499461788241	-89.35302370229658	-89.37816971470887	24954.99164328733	270.8308548019909	-24953.52196714178
1016.057435117228	-89.36931198224957	-89.39447181131366	24938.76079658822	263.5594047206414	-24937.36807503207
1016.615715028589	-89.38713011041986	-89.41230376372739	24888.8383510953	255.2861704983045	-24887.5290745808
1017.174301690778	-89.3785802216463	-89.4037677067931	24859.2823816076	258.6864086704725	-24857.9363960582
1017.733195272342	-89.35547498587093	-89.38067631045699	24864.09500743821	268.7566749661746	-24862.64246592817
1018.292395941919	-89.42896125307337	-89.45417642470285	24798.72352063248	236.2394458532914	-24797.59825420586
1018.85190386824	-89.38658383573467	-89.41181286201596	24809.19536768032	254.6818183821678	-24807.88809961695
1019.411719220131	-89.38745638087381	-89.41269926941943	24806.70972399889	254.2725440445616	-24805.40652366105
1019.971842166509	-89.44029897715282	-89.46555573557947	24747.79901978789	230.839471195875	-24746.72239837737
1020.532272876383	-89.41593022941292	-89.4412008653415	24751.91429994035	241.3987407172551	-24750.73712356001
1021.093011518856	-89.41283823068048	-89.4381227517361	24760.1873132888	242.8095584920416	-24758.99673467107
1021.654058263125	-89.41673032481059	-89.44202873862251	24719.31902833275	240.7236925188364	-24718.14688297555
1022.215413278477	-89.40084888154023	-89.42616119574193	24664.08050734322	247.0159229033374	-24662.84351826731
1022.777076734295	-89.42101336087967	-89.44633958310882	24651.16850264007	238.2053955585369	-24650.01758082701
1023.339048800053	-89.41312054619762	-89.43846068409607	24661.88790134345	241.7001405237139	-24660.70347537761
1023.901329645318	-89.35955487328654	-89.38490893450034	24615.86756831977	264.2552298388024	-24614.44911661766
1024.463919439754	-89.42677140794686	-89.4521394001263	24610.98909219347	235.3259855391964	-24609.86399345993
1025.026818353112	-89.37531580129124	-89.40069773209076	24589.65733481597	257.1981534843848	-24588.31220221333
1025.590026555242	-89.43450220023864	-89.45989807731689	24567.15659662358	231.5802684931228	-24566.06508625812
1026.153544216084	-89.37952106083048	-89.40493089185038	24521.56751827442	254.6743426015761	-24520.24499332157
1026.717371505672	-89.34245976290165	-89.36788355553027	24511.96734169554	270.4231176523454	-24510.4756032556
1027.281508594134	-89.33214318033342	-89.35758094224208	24488.38233589005	274.5660154726536	-24486.84305768874
1027.845955651691	-89.39870092904152	-89.42415266790572	24463.86355567571	245.8682562165011	-24462.62800418841
1028.410712848658	-89.38521560141834	-89.41068132491779	24440.72719374724	251.3819190508274	-24439.43438154718
1028.975780355443	-89.36349513373744	-89.38897484955612	24443.83087862696	260.6738657185747	-24442.44090017705
1029.541158342548	-89.4364534902799	-89.46194720610599	24393.88224347695	229.0745268759406	-24392.80663986325
1030.106846980568	-89.37072599474092	-89.39623371826681	24404.54863833267	257.1632852921924	-24403.19366979336
1030.672846440194	-89.43653101119564	-89.46205275011795	24374.06936811755	228.8435737406328	-24372.99505970828
1031.239156892208	-89.4174617950094	-89.442997557029	24336.94853509497	236.5885652234998	-24335.79852502618
1031.805778507486	-89.37512799938001	-89.40067779220196	24336.19341913323	254.5554894609211	-24334.86206322627
1032.372711457	-89.42171229169797	-89.44727612303161	24327.4728635776	234.67987827469	-24326.34089383025
1032.939955911816	-89.4150878698478	-89.44066574740668	24291.53534294405	237.1356506765638	-24290.37784804259
1033.50751204309	-89.43787921712172	-89.46347114862367	24259.3893122622	227.1663318212179	-24258.32568957693
1034.075380022077	-89.40030414748891	-89.42591014065592	24232.35298462066	242.7982559909641	-24231.13658452986
1034.643560020123	-89.36079752565247	-89.38641758821083	24232.66872082238	259.5034965265081	-24231.27919174747
1035.212052208669	-89.41652201050222	-89.44215615018244	24190.44874309147	235.519613700241	-24189.30219960258
1035.780856759251	-89.38744266479883	-89.41309088933571	24194.95792291685	247.8366298944863	-24193.6885550054
1036.349973843498	-89.38052579835582	-89.40618811548836	24174.33111511313	250.5376182420309	-24173.03282099646
1036.919403633133	-89.39663008195933	-89.42230649943082	24169.7690272092	243.6912809698339	-24168.54048940937
1037.489146299976	-89.36925897945018	-89.39494950500814	24126.24015919507	254.7713350758056	-24124.89493834078
1038.059202015938	-89.36545555346609	-89.39116019486228	24125.22927966126	256.3561154177921	-24123.86721357736
1038.629570953027	-89.45488159138849	-89.480600356379	24098.17315396338	218.4525845166978	-24097.18298529352
1039.200253283344	-89.38047572005665	-89.40620861640174	24055.53311781562	249.2978142930075	-24054.24129300512
1039.771249179085	-89.42703761888399	-89.45278465434825	24036.63784502261	229.5634553761513	-24035.54158975264
1040.342558812542	-89.31656941398568	-89.34233059633794	24019.54197538997	275.7021737769777	-24017.95963480028
1040.914182356099	-89.384907407084	-89.41068274409737	24010.25802903303	246.9537897874324	-24008.98799296744
1041.486119982236	-89.41859648374297	-89.44438598319483	23998.76306072593	232.7194127274215	-23997.63467760527
1042.058371863529	-89.4386213239799	-89.46442499365189	23966.46144415248	224.0243683670414	-23965.41439734404
1042.630938172648	-89.39220124630572	-89.41801909398379	23926.76348151617	243.031514000456	-23925.52917666855
1043.203819082355	-89.35753913803403	-89.38337117150834	23930.49081035218	257.5398359859149	-23929.10494893678
1043.777014765513	-89.39354471580084	-89.41939094286589	23922.62995571126	242.4167717596158	-23921.4016752084
1044.350525395073	-89.35208331861837	-89.37794374707291	23873.26446557571	259.1852632243155	-23871.85747365812
1044.924351144088	-89.46814078382212	-89.49401542146923	23874.68058910063	210.8368762840209	-23873.74962261222
1045.498492185699	-89.33155885171422	-89.35744770636121	23854.71416203266	267.5167374770948	-23853.21409260084
1046.072948693149	-89.36656689040997	-89.3924699698685	23797.33742005589	252.3279433138464	-23795.99964054915
1046.647720839771	-89.31908804260355	-89.34500535468952	23789.91430623162	271.9559314727053	-23788.3598146064
1047.222808798996	-89.43252385078597	-89.45845540331959	23780.49681269858	224.7636373786676	-23779.43460148033
1047.798212744349	-89.38694054518244	-89.41288634598823	23772.66127028507	243.5957741812648	-23771.41318833427
1048.373932849451	-89.35997236826964	-89.38593242517641	23745.12679618269	254.483548496913	-23743.76306928491
1048.949969288018	-89.40064814438146	-89.42662246522231	23709.45683294649	237.2642997419307	-23708.26963245992
1049.526322233862	-89.31772772933196	-89.3437163219443	23690.91235957748	271.3571444344327	-23689.35823802209
1050.10299186089	-89.44070541050125	-89.46670828272684	23688.40441232752	220.4812915172485	-23687.37831846464
1050.679978343104	-89.42847358192942	-89.45449074161425	23654.91007026619	225.2134032663381	-23653.8379413441
1051.257281854604	-89.37808238935017	-89.40411384434459	23644.72955214896	245.9049011804546	-23643.45081357292
1051.834902569582	-89.34270154137026	-89.36874729952895	23615.83642237545	260.1807507338881	-23614.40314522776
1052.412840662329	-89.41058294127116	-89.43664301045307	23600.76795087755	232.0492620509393	-23599.62713712127
1052.99109630723	-89.38508341912363	-89.41115780719205	23587.64173525904	242.4114707672673	-23586.39606446425
1053.569669678767	-89.33715135442793	-89.36324006925047	23557.13587966013	261.7981910349109	-23555.68111008343
1054.148560951516	-89.38366829404211	-89.40977134349072	23554.49860255253	242.6408069823358	-23553.24881744419
1054.72777030015	-89.35831203144055	-89.38442942339147	23521.16929847879	252.700309287151	-23519.81181305215
1055.30729789944	-89.37269971699681	-89.39883145933062	23497.68674633577	246.5419090623444	-23496.39332995597
1055.887143924248	-89.37554301899391	-89.40168911959556	23486.4437082422	245.2526092653487	-23485.16317205563
1056.467308549538	-89.37771591340756	-89.40387638016625	23447.22670050858	243.9480464320084	-23445.95763230166
1057.047791950365	-89.35146249483311	-89.37763733564245	23429.89584473657	254.4970288997556	-23428.51362245342
1057.628594301885	-89.35205004162121	-89.3782392643791	23429.76461559223	254.2494733544886	-23428.38507339669
1058.209715779345	-89.32364546282723	-89.34984907543596	23412.45235192965	265.6618169199133	-23410.94506700674
1058.791156558093	-89.34826557481175	-89.37448358517791	23363.6257286069	255.0631341497973	-23362.23341172714
1059.37291681357	-89.31346747044338	-89.33969988647792	23338.73058242179	268.9591706074683	-23337.18076725242
1059.954996721315	-89.35817628676094	-89.38442311637911	23354.75105981973	250.9149612034183	-23353.40315132669
1060.537396456964	-89.39855225663212	-89.42481350775364	23323.7150909613	234.1404663693519	-23322.53982494926
1061.120116196248	-89.33514833880639	-89.36142401935521	23293.15209754338	259.6027077198204	-23291.70541358949
1061.703156114995	-89.39665405527238	-89.42294417317683	23266.19017044847	234.3220346048458	-23265.01017045923
1062.286516389132	-89.28785194731998	-89.31415651051279	23293.02431475971	278.8161310755721	-23291.35554863733
1062.870197194677	-89.33195475371782	-89.35827377013602	23223.88079863567	260.1074983769066	-23222.42415077562
1063.454198707751	-89.36995333053365	-89.3962868081187	23225.20789144972	244.7144459505241	-23223.9186280223
1064.038521104568	-89.35841242136219	-89.38476036805987	23194.93733600396	249.0614595540779	-23193.60011750042
1064.623164561439	-89.38125239876948	-89.40761482252994	23187.68878415396	239.7349077242433	-23186.44945490356
1065.208129254774	-89.29830033233281	-89.32467724111056	23178.7758675326	273.1927651346078	-23177.16584119788
1065.793415361079	-89.33847094660042	-89.36486234835435	23145.47610630359	256.5679774881419	-23144.05403252416
1066.379023056955	-89.36967698222585	-89.39608288491924	23110.73454675073	243.59053705447	-23109.45077107275
1066.964952519103	-89.41192926846816	-89.43834968006863	23099.18672943257	226.4295546834258	-23098.07691601099
1067.55120392432	-89.35387994076412	-89.3803148692437	23081.88645448464	249.6383344058745	-23080.53645389805
1068.137777449498	-89.35943544892669	-89.38588490226178	23057.32820340104	247.1313308756416	-23056.0037730881
1068.724673271629	-89.35704693197124	-89.3835109181426	23025.40341381438	247.7431328350931	-23024.07057209971
1069.311891567802	-89.32570834093221	-89.35218686792504	23014.72592990158	260.209812313422	-23013.25488673995
1069.899432515203	-89.38019992155809	-89.40669299736193	22984.49541099737	238.0038893730093	-22983.26311572842
1070.487296291114	-89.4095277202521	-89.4360353528609	22964.46582307509	226.0365047153329	-22963.3533709195
1071.075483072914	-89.36912044496596	-89.39564264237804	22951.23302812994	242.0857077871704	-22949.95625315237
1071.663993038084	-89.35663411549191	-89.38317088571003	22927.80884034419	246.8291199454915	-22926.48018351078
1072.252826364197	-89.36083247746549	-89.38738382849674	22906.70694847806	244.9177208462565	-22905.39758514287
1072.841983228927	-89.3801547716631	-89.406720711519	22879.75897282886	236.9082796889956	-22878.53240751595
1073.431463810045	-89.36972036634944	-89.39630090304594	22865.86087318979	240.9225297271467	-22864.59161688093
1074.021268285418	-89.31564418878203	-89.34223933033948	22871.48022845656	262.5608698317224	-22869.97310077808
1074.611396833012	-89.33305722252743	-89.35966697697054	22833.99096549774	255.1855340498624	-22832.56498415463
1075.201849630892	-89.35507509395831	-89.38169946931625	22825.08297058841	246.3093638107728	-22823.75394871632
1075.792626857219	-89.37676247335234	-89.40340147765866	22785.7562846158	237.2548728468722	-22784.52105239912
1076.383728690252	-89.34181856321251	-89.36847220450521	22784.76529791012	251.1340515219236	-22783.38125408552
1076.975155308349	-89.34803904473443	-89.37470733105587	22769.61203319357	248.4893124358833	-22768.25608613357
1077.566906889966	-89.35355013038084	-89.38023306977784	22730.85846591897	245.8742993821793	-22729.52864505869
1078.158983613655	-89.39022153307377	-89.41691913359756	22729.6407741303	231.3083090617927	-22728.46378854421
1078.751385658069	-89.33782881327564	-89.36454108298189	22694.12663746558	251.6920026057724	-22692.73088398901
1079.344113201956	-89.29301679227383	-89.31974373922259	22664.58224512501	269.0837246078411	-22662.98484964386
1079.937166424166	-89.4084349240638	-89.43517655631963	22651.35832740381	223.2941257147947	-22650.2576985311
1080.530545503644	-89.36999036775548	-89.39674669338727	22652.3537767472	238.4967088731985	-22651.09822827074
1081.124250619436	-89.33037005239531	-89.35714107947648	22609.97211898111	253.6786728366211	-22608.54896608915
1081.718281950683	-89.34086534579612	-89.36765108240445	22595.39593159153	249.3706206497196	-22594.01981938893
1082.312639676627	-89.37929355681418	-89.40609401103191	22589.79557833389	234.1529296886528	-22588.58199791284
1082.907323976609	-89.32417521967562	-89.35099039958948	22564.77997130657	255.5937938774438	-22563.33235508464
1083.502335030066	-89.35074243546077	-89.37757234916189	22563.19886447988	245.1085011081791	-22561.86749408724
1084.097673016536	-89.36067751448911	-89.38752217007303	22521.6205341495	240.7460144769615	-22520.33376397291
1084.693338115653	-89.32452229256529	-89.35138169813206	22488.78884633022	254.5794577155744	-22487.34784438876
1085.289330507154	-89.3835846204874	-89.4104587841415	22479.67232551906	231.2990523822137	-22478.48234670381
1085.88565037087	-89.30446851400758	-89.33135744385795	22458.19839711622	262.0815436105177	-22456.66913210265
1086.482297886733	-89.29036531111184	-89.31726901527186	22440.11710617254	267.3879441753477	-22438.52400284046
1087.079273234775	-89.34440596699538	-89.37132445358291	22410.40986559994	245.8923516608871	-22409.06083028857
1087.676576595125	-89.33242345238956	-89.35935672952688	22399.15646728722	250.4472400946367	-22397.75628552877
1088.274208148012	-89.40607177307544	-89.43301984888932	22385.41153606143	221.5150396830606	-22384.31550720339
1088.872168073763	-89.38452396020898	-89.41148684283066	22374.37906057496	229.8142207921083	-22373.19878270018
1089.470456552805	-89.2699443292325	-89.29692202679769	22346.9457826208	274.2130603637647	-22345.26332377669
1090.069073765664	-89.37247991802346	-89.3994724386723	22297.82485513614	233.7033081620447	-22296.60010033102
1090.668019892966	-89.35365734407269	-89.38066469594985	22305.52698501197	241.1055653786182	-22304.22386422448
1091.267295115434	-89.26484061225558	-89.2918628035102	22273.71797502342	275.281125088338	-22272.01680883551
1091.866899613892	-89.33691576678702	-89.36395280557267	22264.80136743627	247.159104948675	-22263.42948218519
1092.466833569264	-89.33936543349239	-89.36641732796714	22220.32795067668	245.7096832584982	-22218.9693952527
1093.067097162571	-89.3114991497124	-89.33856590803883	22227.48860442176	256.5929343454452	-22226.00750755167
1093.667690574936	-89.37577001577193	-89.40285164611709	22182.80079798078	231.1895096862278	-22181.59603485529
1094.26861398758	-89.37404427370481	-89.4011407842402	22184.61762015548	231.8708450714455	-22183.40584454332
1094.869867581824	-89.32766813123773	-89.35477953013938	22164.15313847662	249.5901646972663	-22162.74777854789
1095.471451539088	-89.36709962353376	-89.39422591898217	22132.76035019328	233.9998319093471	-22131.52332754694
1096.073366040893	-89.31020919371731	-89.33735039389752	22105.07707755106	255.6487440562864	-22103.59871885427
1096.675611268859	-89.33054754225148	-89.35770365535301	22093.93268793731	247.6719071368785	-22092.54444932769
1097.278187404705	-89.26191858544389	-89.2890896196607	22090.31883273426	274.08360878928	-22088.61843364693
1097.881094630252	-89.34558349112874	-89.37276945465938	22044.27012083446	241.3190555385579	-22042.94921905299
1098.484333127419	-89.32637578937526	-89.35357669042271	22055.99847145992	248.8352402530813	-22054.5947502159
1099.087903078226	-89.32184639021656	-89.34906223698836	22017.68136113298	250.1376551911346	-22016.26043799987
1099.69180466479	-89.33116581473057	-89.35839661543874	22026.34644524247	246.6478891582161	-22024.96543798921
1100.296038069334	-89.30319007704182	-89.33043583990289	21959.57872884947	256.6159733699245	-21958.07929193147
